Circuit: * C:\Users\pkubo\OneDrive\Dokumenty\LTspiceXVII\lab8\zart_jakis.asc

Direct Newton iteration for .op point succeeded.
Semiconductor Device Operating Points:
                        --- Bipolar Transistors ---
Name:       q1
Model:    bc547c
Ib:       0.00e+00
Ic:       2.45e-09
Vbe:      2.80e-01
Vbc:     -7.42e+00
Vce:      7.70e+00
BetaDC:   0.00e+00
Gm:       9.33e-08
Rpi:      4.15e+09
Rx:       1.00e+00
Ro:       2.46e+10
Cbe:      1.56e-11
Cbc:      9.93e-13
Cjs:      0.00e+00
BetaAC:   3.88e+02
Cbx:      6.11e-13
Ft:       8.66e+02



Date: Mon May 17 09:56:50 2021
Total elapsed time: 0.022 seconds.

tnom = 27
temp = 27
method = trap
totiter = 20
traniter = 0
tranpoints = 0
accept = 0
rejected = 0
matrix size = 13
fillins = 0
solver = Normal
Matrix Compiler1: 638 bytes object code size
Matrix Compiler2: 959 bytes object code size
